 ****** HSPICE -- I-2013.12-SP2 64-BIT (May 27 2014) RHEL64 ******              
  Copyright (C) 2014 Synopsys, Inc. All Rights Reserved.                        
  Unpublished-rights reserved under US copyright laws.
  This program is protected by law and is subject to the
  terms and conditions of the license agreement from Synopsys.
  Use of this program is your acceptance to be bound by the
  license agreement. HSPICE is the trademark of Synopsys, Inc.
  Input File: ckt.sp                                                            
  Command line options: ckt.sp
 lic:  
 lic: FLEXlm: v10.9.8 
 lic: USER:   lenius               HOSTNAME: corn32.stanford.edu 
 lic: HOSTID: 00144fcaa0b8         PID:      27226 
 lic: Using FLEXlm license file: 
 lic: 27000@cadlic0 
 lic: Checkout 1 hspice 
 lic: License/Maintenance for hspice will expire on 16-oct-2016/2015.06 
 lic: 1(in_use)/150(total) FLOATING license(s) on SERVER 27000@cadlic0 
 lic:   

 **warning**  runlvl smaller than 5, reset to 5  when accurate turned on

 **warning**  runlvl smaller than 5, reset to 5  when accurate turned on
 

  
      
 *****************************************************************
 ******  option summary
 ******
 runlvl  = 5         bypass  = 2         
  Opening plot unit= 15
 file=ckt.pa0

 **info** dc convergence successful at GMINDC ramping method 
 ****** HSPICE -- I-2013.12-SP2 64-BIT (May 27 2014) RHEL64 ******              
 ******  
 * ee214b homework 4 problem 2

 ****** operating point information tnom=  25.000 temp=  25.000 ******
 ****** operating point status is all       simulation time is     0.     
    node    =voltage      node    =voltage      node    =voltage

 +0:t       = 233.3052m 0:vdd     =   1.8000  0:vic     =   1.0000 
 +0:vid     =   0.      0:vim     =   1.0000  0:vip     =   1.0000 
 +0:voc     =   1.0947  0:vod     =-113.4648f 0:vom     =   1.0947 
 +0:vop     =   1.0947  2:vminv   =  -1.0947 


 **** voltage sources

 subckt                                   
 element  0:vdd      0:vic      0:vid     
  volts      1.8000     1.0000     0.     
  current -864.0000u    0.         0.     
  power      1.5552m    0.         0.     

     total voltage source power dissipation=    1.5552m       watts



 **** current sources

 subckt             
 element  0:it      
  volts    233.3052m
  current  864.0000u
  power   -201.5757u


     total current source power dissipation=-201.5757u       watts

 **** resistors

 subckt   x2         x2        
 element  2:rdum1    2:rdum2   
  r value    1.0000g    1.0000g
  v drop  -113.4648f    1.0947 
  current -1.135e-22    1.0947n
  power      0.         1.1984n


 **** voltage-controlled voltage sources


 subckt     x1         x1         x2         x2         x2      
 element  1:e1       1:e2       2:e1       2:e2       2:e3      
  volts      0.         0.        -1.0947     1.0947  -113.6868f
  current    0.         0.         0.        -1.0947n  1.135e-22





 **** mosfets


 subckt                                              
 element  0:mn1      0:mn2      0:mp1      0:mp2     
 model    0:nmos214  0:nmos214  0:pmos214  0:pmos214 
 region     Saturati   Saturati   Saturati   Saturati
  id       432.0000u  432.0000u -432.0000u -432.0000u
  ibs        0.         0.         0.         0.     
  ibd        0.         0.         0.         0.     
  vgs      766.6948m  766.6948m -705.2893m -705.2893m
  vds      861.4055m  861.4055m -705.2893m -705.2893m
  vbs     -233.3052m -233.3052m    0.         0.     
  vth      539.3026m  539.3026m -473.1715m -473.1715m
  vdsat    175.9134m  175.9134m -201.5639m -201.5639m
  vod      227.3922m  227.3922m -232.1178m -232.1178m
  beta      19.6293m   19.6293m   16.4942m   16.4942m
  gam eff  584.1622m  584.1622m  535.9139m  535.9139m
  gm         3.4642m    3.4642m    3.4362m    3.4362m
  gds       70.9399u   70.9399u   99.4185u   99.4185u
  gmb      793.1022u  793.1022u    1.0741m    1.0741m
  cdtot     16.0389f   16.0389f   60.7131f   60.7131f
  cgtot     33.9738f   33.9738f  111.2142f  111.2142f
  cstot     38.1539f   38.1539f  125.9796f  125.9796f
  cbtot     26.0242f   26.0242f   89.8190f   89.8190f
  cgs       25.8076f   25.8076f   80.5684f   80.5684f
  cgd        6.6072f    6.6072f   28.0225f   28.0225f



 ***************************************************
   ******   pole/zero analysis  
  
  
    input =  0:vid          output = v(vod)
  
       poles (rad/sec)                 poles ( hertz)
 real            imag            real            imag            
 -5.70888g       0.              -908.596x       0.              
  
       zeros (rad/sec)                 zeros ( hertz)
 real            imag            real            imag            
 510.162g        0.              81.1948g        0.              
  
  ***** constant factor = 10.7517m

          ***** job concluded
 ****** HSPICE -- I-2013.12-SP2 64-BIT (May 27 2014) RHEL64 ******              
 ******  
 * ee214b homework 4 problem 2

 ****** job statistics summary tnom=  25.000 temp=  25.000 ******
  
  
 ******  Machine Information  ******
 CPU:
 model name	: Intel(R) Xeon(R) CPU           E5520  @ 2.27GHz
 cpu MHz	: 2260.763
  
 OS:
 Linux version 3.13.0-43-generic (buildd@tipua) (gcc version 4.8.2 (Ubuntu 4.8.2-19ubuntu1) ) #72-Ubuntu SMP Mon Dec 8 19:35:06 UTC 2014


  ******  HSPICE Threads Information  ******

  Command Line Threads Count :     1
  Available CPU Count        :    16
  Actual Threads Count       :     1


  ******  Circuit Statistics  ******
  # nodes       =      16 # elements   =      17
  # resistors   =       2 # capacitors =       2 # inductors   =       0
  # mutual_inds =       0 # vccs       =       0 # vcvs        =       5
  # cccs        =       0 # ccvs       =       0 # volt_srcs   =       3
  # curr_srcs   =       1 # diodes     =       0 # bjts        =       0
  # jfets       =       0 # mosfets    =       4 # U elements  =       0
  # T elements  =       0 # W elements =       0 # B elements  =       0
  # S elements  =       0 # P elements =       0 # va device   =       0
  # vector_srcs =       0 # N elements =       0


  ******  Runtime Statistics (seconds)  ******

  analysis           time    # points   tot. iter  conv.iter
  op point           0.00           1         230
  ac analysis        0.00         601         601
  readin             0.01
  errchk             0.00
  setup              0.00
  output             0.00


           peak memory used        176.54 megabytes
           total cpu time            0.01 seconds
           total elapsed time        1.68 seconds
           job started at     18:10:32 01/31/2016
           job ended   at     18:10:33 01/31/2016


 lic: Release hspice token(s) 
 lic: total license checkout elapse time:        1.63(s)
