 ****** HSPICE -- I-2013.12-SP2 64-BIT (May 27 2014) RHEL64 ******              
  Copyright (C) 2014 Synopsys, Inc. All Rights Reserved.                        
  Unpublished-rights reserved under US copyright laws.
  This program is protected by law and is subject to the
  terms and conditions of the license agreement from Synopsys.
  Use of this program is your acceptance to be bound by the
  license agreement. HSPICE is the trademark of Synopsys, Inc.
  Input File: ckt.sp                                                            
  Command line options: ckt.sp
 lic:  
 lic: FLEXlm: v10.9.8 
 lic: USER:   lenius               HOSTNAME: corn15.stanford.edu 
 lic: HOSTID: 001b213a6975         PID:      28849 
 lic: Using FLEXlm license file: 
 lic: 27000@cadlic0 
 lic: Checkout 1 hspice 
 lic: License/Maintenance for hspice will expire on 16-oct-2016/2015.06 
 lic: 1(in_use)/150(total) FLOATING license(s) on SERVER 27000@cadlic0 
 lic:   

 **warning**  runlvl smaller than 5, reset to 5  when accurate turned on

 **warning**  runlvl smaller than 5, reset to 5  when accurate turned on
 

  
      
 *****************************************************************
 ******  option summary
 ******
 runlvl  = 5         bypass  = 2         
  Opening plot unit= 15
 file=ckt.pa0

 **info** dc convergence successful at GMINDC ramping method 
 ****** HSPICE -- I-2013.12-SP2 64-BIT (May 27 2014) RHEL64 ******              
 ******  
 * ee214b homework 4 problem 2

 ****** operating point information tnom=  25.000 temp=  25.000 ******
 ****** operating point status is all       simulation time is     0.     
    node    =voltage      node    =voltage      node    =voltage

 +0:t       = 233.1974m 0:vdd     =   1.8000  0:vic     =   1.0000 
 +0:vid     =   0.      0:vim     =   1.0000  0:vip     =   1.0000 
 +0:voc     =   1.0947  0:vod     = 441.6467f 0:vom     =   1.0947 
 +0:vop     =   1.0947  2:vminv   =  -1.0947 


 **** voltage sources

 subckt                                   
 element  0:vdd      0:vic      0:vid     
  volts      1.8000     1.0000     0.     
  current   -1.0956m    0.         0.     
  power      1.9720m    0.         0.     

     total voltage source power dissipation=    1.9720m       watts



 **** current sources

 subckt             
 element  0:it      
  volts    233.1974m
  current    1.0956m
  power   -255.4798u


     total current source power dissipation=-255.4798u       watts

 **** resistors

 subckt   x2         x2        
 element  2:rdum1    2:rdum2   
  r value    1.0000g    1.0000g
  v drop   441.6467f    1.0947 
  current  4.416e-22    1.0947n
  power      0.         1.1985n


 **** voltage-controlled voltage sources


 subckt     x1         x1         x2         x2         x2      
 element  1:e1       1:e2       2:e1       2:e2       2:e3      
  volts      0.         0.        -1.0947     1.0947   441.8688f
  current    0.         0.         0.        -1.0947n -4.416e-22





 **** mosfets


 subckt                                              
 element  0:mn1      0:mn2      0:mp1      0:mp2     
 model    0:nmos214  0:nmos214  0:pmos214  0:pmos214 
 region     Saturati   Saturati   Saturati   Saturati
  id       547.7760u  547.7760u -547.7760u -547.7760u
  ibs        0.         0.         0.         0.     
  ibd        0.         0.         0.         0.     
  vgs      766.8026m  766.8026m -705.2563m -705.2563m
  vds      861.5463m  861.5463m -705.2563m -705.2563m
  vbs     -233.1974m -233.1974m    0.         0.     
  vth      539.3613m  539.3613m -473.2138m -473.2138m
  vdsat    176.0868m  176.0868m -201.6380m -201.6380m
  vod      227.4413m  227.4413m -232.0425m -232.0425m
  beta      24.8611m   24.8611m   20.9143m   20.9143m
  gam eff  584.3111m  584.3111m  535.9921m  535.9921m
  gm         4.3913m    4.3913m    4.3583m    4.3583m
  gds       89.8445u   89.8445u  126.0953u  126.0953u
  gmb        1.0058m    1.0058m    1.3630m    1.3630m
  cdtot     20.2688f   20.2688f   76.9346f   76.9346f
  cgtot     43.0812f   43.0812f  141.0176f  141.0176f
  cstot     48.3107f   48.3107f  159.6900f  159.6900f
  cbtot     32.8565f   32.8565f  113.7785f  113.7785f
  cgs       32.7243f   32.7243f  102.1611f  102.1611f
  cgd        8.3798f    8.3798f   35.5343f   35.5343f



 ***************************************************
   ******   pole/zero analysis  
  
  
    input =  0:vid          output = v(vod)
  
       poles (rad/sec)                 poles ( hertz)
 real            imag            real            imag            
 -6.85911g       0.              -1.09166g       0.              
  
       zeros (rad/sec)                 zeros ( hertz)
 real            imag            real            imag            
 509.923g        0.              81.1568g        0.              
  
  ***** constant factor = 12.9166m

          ***** job concluded
 ****** HSPICE -- I-2013.12-SP2 64-BIT (May 27 2014) RHEL64 ******              
 ******  
 * ee214b homework 4 problem 2

 ****** job statistics summary tnom=  25.000 temp=  25.000 ******
  
  
 ******  Machine Information  ******
 CPU:
 model name	: Quad-Core AMD Opteron(tm) Processor 2384
 cpu MHz	: 2700.000
  
 OS:
 Linux version 3.13.0-53-generic (buildd@phianna) (gcc version 4.8.2 (Ubuntu 4.8.2-19ubuntu1) ) #89-Ubuntu SMP Wed May 20 10:34:39 UTC 2015


  ******  HSPICE Threads Information  ******

  Command Line Threads Count :     1
  Available CPU Count        :     8
  Actual Threads Count       :     1


  ******  Circuit Statistics  ******
  # nodes       =      16 # elements   =      17
  # resistors   =       2 # capacitors =       2 # inductors   =       0
  # mutual_inds =       0 # vccs       =       0 # vcvs        =       5
  # cccs        =       0 # ccvs       =       0 # volt_srcs   =       3
  # curr_srcs   =       1 # diodes     =       0 # bjts        =       0
  # jfets       =       0 # mosfets    =       4 # U elements  =       0
  # T elements  =       0 # W elements =       0 # B elements  =       0
  # S elements  =       0 # P elements =       0 # va device   =       0
  # vector_srcs =       0 # N elements =       0


  ******  Runtime Statistics (seconds)  ******

  analysis           time    # points   tot. iter  conv.iter
  op point           0.00           1         230
  ac analysis        0.01         601         601
  readin             0.01
  errchk             0.00
  setup              0.00
  output             0.00


           peak memory used        176.66 megabytes
           total cpu time            0.03 seconds
           total elapsed time        1.48 seconds
           job started at     22:27:40 02/02/2016
           job ended   at     22:27:41 02/02/2016


 lic: Release hspice token(s) 
 lic: total license checkout elapse time:        1.39(s)
