 ****** HSPICE -- I-2013.12-SP2 64-BIT (May 27 2014) RHEL64 ******              
  Copyright (C) 2014 Synopsys, Inc. All Rights Reserved.                        
  Unpublished-rights reserved under US copyright laws.
  This program is protected by law and is subject to the
  terms and conditions of the license agreement from Synopsys.
  Use of this program is your acceptance to be bound by the
  license agreement. HSPICE is the trademark of Synopsys, Inc.
  Input File: ckt.sp                                                            
  Command line options: ckt.sp
 lic:  
 lic: FLEXlm: v10.9.8 
 lic: USER:   lenius               HOSTNAME: corn32.stanford.edu 
 lic: HOSTID: 00144fcaa0b8         PID:      1468 
 lic: Using FLEXlm license file: 
 lic: 27000@cadlic0 
 lic: Checkout 1 hspice 
 lic: License/Maintenance for hspice will expire on 16-oct-2016/2015.06 
 lic: 1(in_use)/150(total) FLOATING license(s) on SERVER 27000@cadlic0 
 lic:   

 **warning**  runlvl smaller than 5, reset to 5  when accurate turned on

 **warning**  runlvl smaller than 5, reset to 5  when accurate turned on
 

  
      
 *****************************************************************
 ******  option summary
 ******
 runlvl  = 5         bypass  = 2         
  Opening plot unit= 15
 file=ckt.pa0

 **info** dc convergence successful at GMINDC ramping method 
 ****** HSPICE -- I-2013.12-SP2 64-BIT (May 27 2014) RHEL64 ******              
 ******  
 * ee214b homework 4 problem 2

 ****** operating point information tnom=  25.000 temp=  25.000 ******
 ****** operating point status is all       simulation time is     0.     
    node    =voltage      node    =voltage      node    =voltage

 +0:t       = 233.0042m 0:vdd     =   1.8000  0:vic     =   1.0000 
 +0:vid     =   0.      0:vim     =   1.0000  0:vip     =   1.0000 
 +0:voc     =   1.0947  0:vod     = 987.4324f 0:vom     =   1.0947 
 +0:vop     =   1.0947  2:vminv   =  -1.0947 


 **** voltage sources

 subckt                                   
 element  0:vdd      0:vic      0:vid     
  volts      1.8000     1.0000     0.     
  current   -1.1540m    0.         0.     
  power      2.0772m    0.         0.     

     total voltage source power dissipation=    2.0772m       watts



 **** current sources

 subckt             
 element  0:it      
  volts    233.0042m
  current    1.1540m
  power   -268.8869u


     total current source power dissipation=-268.8869u       watts

 **** resistors

 subckt   x2         x2        
 element  2:rdum1    2:rdum2   
  r value    1.0000g    1.0000g
  v drop   987.4324f    1.0947 
  current  9.874e-22    1.0947n
  power      0.         1.1983n


 **** voltage-controlled voltage sources


 subckt     x1         x1         x2         x2         x2      
 element  1:e1       1:e2       2:e1       2:e2       2:e3      
  volts      0.         0.        -1.0947     1.0947   987.4324f
  current    0.         0.         0.        -1.0947n -9.874e-22





 **** mosfets


 subckt                                              
 element  0:mn1      0:mn2      0:mp1      0:mp2     
 model    0:nmos214  0:nmos214  0:pmos214  0:pmos214 
 region     Saturati   Saturati   Saturati   Saturati
  id       577.0000u  577.0000u -577.0000u -577.0000u
  ibs        0.         0.         0.         0.     
  ibd        0.         0.         0.         0.     
  vgs      766.9958m  766.9958m -705.3199m -705.3199m
  vds      861.6758m  861.6758m -705.3199m -705.3199m
  vbs     -233.0042m -233.0042m    0.         0.     
  vth      539.3270m  539.3270m -473.2214m -473.2214m
  vdsat    176.2447m  176.2447m -201.7064m -201.7064m
  vod      227.6688m  227.6688m -232.0985m -232.0985m
  beta      26.1364m   26.1364m   22.0171m   22.0171m
  gam eff  584.3389m  584.3389m  536.0068m  536.0068m
  gm         4.6204m    4.6204m    4.5895m    4.5895m
  gds       94.5421u   94.5421u  132.8016u  132.8016u
  gmb        1.0584m    1.0584m    1.4355m    1.4355m
  cdtot     21.3001f   21.3001f   80.9822f   80.9822f
  cgtot     45.3017f   45.3017f  148.4556f  148.4556f
  cstot     50.7881f   50.7881f  168.1033f  168.1033f
  cbtot     34.5234f   34.5234f  119.7571f  119.7571f
  cgs       34.4107f   34.4107f  107.5503f  107.5503f
  cgd        8.8119f    8.8119f   37.4090f   37.4090f



 ***************************************************
   ******   pole/zero analysis  
  
  
    input =  0:vid          output = v(vod)
  
       poles (rad/sec)                 poles ( hertz)
 real            imag            real            imag            
 -7.12940g       0.              -1.13468g       0.              
  
       zeros (rad/sec)                 zeros ( hertz)
 real            imag            real            imag            
 510.220g        0.              81.2040g        0.              
  
  ***** constant factor = 13.4066m

          ***** job concluded
 ****** HSPICE -- I-2013.12-SP2 64-BIT (May 27 2014) RHEL64 ******              
 ******  
 * ee214b homework 4 problem 2

 ****** job statistics summary tnom=  25.000 temp=  25.000 ******
  
  
 ******  Machine Information  ******
 CPU:
 model name	: Intel(R) Xeon(R) CPU           E5520  @ 2.27GHz
 cpu MHz	: 2260.763
  
 OS:
 Linux version 3.13.0-43-generic (buildd@tipua) (gcc version 4.8.2 (Ubuntu 4.8.2-19ubuntu1) ) #72-Ubuntu SMP Mon Dec 8 19:35:06 UTC 2014


  ******  HSPICE Threads Information  ******

  Command Line Threads Count :     1
  Available CPU Count        :    16
  Actual Threads Count       :     1


  ******  Circuit Statistics  ******
  # nodes       =      16 # elements   =      17
  # resistors   =       2 # capacitors =       2 # inductors   =       0
  # mutual_inds =       0 # vccs       =       0 # vcvs        =       5
  # cccs        =       0 # ccvs       =       0 # volt_srcs   =       3
  # curr_srcs   =       1 # diodes     =       0 # bjts        =       0
  # jfets       =       0 # mosfets    =       4 # U elements  =       0
  # T elements  =       0 # W elements =       0 # B elements  =       0
  # S elements  =       0 # P elements =       0 # va device   =       0
  # vector_srcs =       0 # N elements =       0


  ******  Runtime Statistics (seconds)  ******

  analysis           time    # points   tot. iter  conv.iter
  op point           0.01           1         230
  ac analysis        0.01         601         601
  readin             0.00
  errchk             0.00
  setup              0.00
  output             0.00


           peak memory used        176.53 megabytes
           total cpu time            0.02 seconds
           total elapsed time        1.71 seconds
           job started at     19:09:19 01/31/2016
           job ended   at     19:09:21 01/31/2016


 lic: Release hspice token(s) 
 lic: total license checkout elapse time:        1.65(s)
