 ****** HSPICE -- I-2013.12-SP2 64-BIT (May 27 2014) RHEL64 ******              
  Copyright (C) 2014 Synopsys, Inc. All Rights Reserved.                        
  Unpublished-rights reserved under US copyright laws.
  This program is protected by law and is subject to the
  terms and conditions of the license agreement from Synopsys.
  Use of this program is your acceptance to be bound by the
  license agreement. HSPICE is the trademark of Synopsys, Inc.
  Input File: ckt.sp                                                            
  Command line options: ckt.sp
 lic:  
 lic: FLEXlm: v10.9.8 
 lic: USER:   lenius               HOSTNAME: corn32.stanford.edu 
 lic: HOSTID: 00144fcaa0b8         PID:      8302 
 lic: Using FLEXlm license file: 
 lic: 27000@cadlic0 
 lic: Checkout 1 hspice 
 lic: License/Maintenance for hspice will expire on 16-oct-2016/2015.06 
 lic: 1(in_use)/150(total) FLOATING license(s) on SERVER 27000@cadlic0 
 lic:   

 **warning**  runlvl smaller than 5, reset to 5  when accurate turned on

 **warning**  runlvl smaller than 5, reset to 5  when accurate turned on
 

  
      
 *****************************************************************
 ******  option summary
 ******
 runlvl  = 5         bypass  = 2         
  Opening plot unit= 15
 file=ckt.pa0

 **info** dc convergence successful at Newton-Raphson method 
 ****** HSPICE -- I-2013.12-SP2 64-BIT (May 27 2014) RHEL64 ******              
 ******  
 * ee214b homework 4 problem 2

 ****** operating point information tnom=  25.000 temp=  25.000 ******
 ****** operating point status is all       simulation time is     0.     
    node    =voltage      node    =voltage      node    =voltage

 +0:t       = 216.9294m 0:vdd     =   1.8000  0:vgm     =   1.0000 
 +0:vgp     =   1.0000  0:vic     =   1.0000  0:vid     =   0.     
 +0:vim     =   1.0000  0:vip     =   1.0000  0:voc     =   1.2290 
 +0:vod     =   0.      0:vom     =   1.2290  0:vop     =   1.2290 


 **** voltage sources

 subckt                                   
 element  0:vdd      0:vic      0:vid     
  volts      1.8000     1.0000     0.     
  current   -1.1420m    0.         0.     
  power      2.0556m    0.         0.     

     total voltage source power dissipation=    2.0556m       watts



 **** current sources

 subckt             
 element  0:it      
  volts    216.9294m
  current    1.1420m
  power   -247.7334u


     total current source power dissipation=-247.7334u       watts

 **** resistors

 subckt                                                         
 element  0:rsp      0:rsm      0:rlp      0:rlm      0:rdum    
  r value   10.0000k   10.0000k    1.0000k    1.0000k    1.0000g
  v drop     0.         0.      -571.0000m -571.0000m    0.     
  current    0.         0.      -571.0000u -571.0000u    0.     
  power      0.         0.       326.0410u  326.0410u    0.     


 **** voltage-controlled voltage sources


 subckt     x1         x1         x2         x2      
 element  1:e1       1:e2       2:e1       2:e2      
  volts      0.         0.         0.         0.     
  current    0.         0.         0.         0.     





 **** mosfets


 subckt                        
 element  0:m1       0:m2      
 model    0:nmos214  0:nmos214 
 region     Saturati   Saturati
  id       571.0000u  571.0000u
  ibs        0.         0.     
  ibd        0.         0.     
  vgs      783.0706m  783.0706m
  vds        1.0121     1.0121 
  vbs     -216.9294m -216.9294m
  vth      541.1596m  541.1596m
  vdsat    176.8482m  176.8482m
  vod      241.9110m  241.9110m
  beta      22.0948m   22.0948m
  gam eff  583.6854m  583.6854m
  gm         4.0170m    4.0170m
  gds      123.2972u  123.2972u
  gmb      887.5677u  887.5677u
  cdtot     12.6847f   12.6847f
  cgtot     22.4760f   22.4760f
  cstot     25.7820f   25.7820f
  cbtot     19.4629f   19.4629f
  cgs       16.2104f   16.2104f
  cgd        5.2983f    5.2983f



 ***************************************************
   ******   pole/zero analysis  
  
  
    input =  0:vid          output = v(vod)
  
       poles (rad/sec)                 poles ( hertz)
 real            imag            real            imag            
 -2.26114g       0.              -359.872x       0.              
 -35.9918g       0.              -5.72827g       0.              
  
       zeros (rad/sec)                 zeros ( hertz)
 real            imag            real            imag            
 743.386g        0.              118.314g        0.              
  
  ***** constant factor = 391.496x

          ***** job concluded
 ****** HSPICE -- I-2013.12-SP2 64-BIT (May 27 2014) RHEL64 ******              
 ******  
 * ee214b homework 4 problem 2

 ****** job statistics summary tnom=  25.000 temp=  25.000 ******
  
  
 ******  Machine Information  ******
 CPU:
 model name	: Intel(R) Xeon(R) CPU           E5520  @ 2.27GHz
 cpu MHz	: 2260.763
  
 OS:
 Linux version 3.13.0-43-generic (buildd@tipua) (gcc version 4.8.2 (Ubuntu 4.8.2-19ubuntu1) ) #72-Ubuntu SMP Mon Dec 8 19:35:06 UTC 2014


  ******  HSPICE Threads Information  ******

  Command Line Threads Count :     1
  Available CPU Count        :    16
  Actual Threads Count       :     1


  ******  Circuit Statistics  ******
  # nodes       =      13 # elements   =      17
  # resistors   =       5 # capacitors =       2 # inductors   =       0
  # mutual_inds =       0 # vccs       =       0 # vcvs        =       4
  # cccs        =       0 # ccvs       =       0 # volt_srcs   =       3
  # curr_srcs   =       1 # diodes     =       0 # bjts        =       0
  # jfets       =       0 # mosfets    =       2 # U elements  =       0
  # T elements  =       0 # W elements =       0 # B elements  =       0
  # S elements  =       0 # P elements =       0 # va device   =       0
  # vector_srcs =       0 # N elements =       0


  ******  Runtime Statistics (seconds)  ******

  analysis           time    # points   tot. iter  conv.iter
  op point           0.00           1           7
  ac analysis        0.00         601         601
  readin             0.01
  errchk             0.00
  setup              0.00
  output             0.00


           peak memory used        176.54 megabytes
           total cpu time            0.01 seconds
           total elapsed time        1.75 seconds
           job started at     17:00:41 01/31/2016
           job ended   at     17:00:42 01/31/2016


 lic: Release hspice token(s) 
 lic: total license checkout elapse time:        1.70(s)
